T3908 000:007.124   SEGGER J-Link V6.70e Log File
T3908 000:007.269   DLL Compiled: Apr 17 2020 17:55:05
T3908 000:007.275   Logging started @ 2021-10-20 08:10
T3908 000:007.285 JLINK_SetWarnOutHandler(...)
T3908 000:007.293 - 0.011ms
T3908 000:007.303 JLINK_OpenEx(...)
T3908 000:008.793   Firmware: J-Link V9 compiled May  7 2021 16:26:12
T3908 000:008.985   Decompressing FW timestamp took 148 us
T3908 000:015.040   Hardware: V9.70
T3908 000:015.063   S/N: 59700618
T3908 000:015.073   OEM: SEGGER
T3908 000:015.082   Feature(s): RDI, FlashBP, FlashDL, JFlash, GDB
T3908 000:015.919   TELNET listener socket opened on port 19021
T3908 000:016.118   WEBSRV Starting webserver
T3908 000:016.235   WEBSRV Webserver running on local port 19080
T3908 000:016.247 - 8.947ms returns "O.K."
T3908 000:016.265 JLINK_GetEmuCaps()
T3908 000:016.272 - 0.009ms returns 0xB9FF7BBF
T3908 000:016.281 JLINK_TIF_GetAvailable(...)
T3908 000:016.431 - 0.158ms
T3908 000:016.448 JLINK_SetErrorOutHandler(...)
T3908 000:016.455 - 0.010ms
T3908 000:016.472 JLINK_ExecCommand("ProjectFile = "C:\Users\Stone\Desktop\STM32 code\01_Stand Temp\Project\JLinkSettings.ini"", ...). 
T3908 000:026.342 - 9.888ms returns 0x00
T3908 000:041.663 JLINK_ExecCommand("Device = STM32F103ZE", ...). 
T3908 000:048.126   Device "STM32F103ZE" selected.
T3908 000:048.662 - 6.981ms returns 0x00
T3908 000:048.679 JLINK_ExecCommand("DisableConnectionTimeout", ...). 
T3908 000:048.692 - 0.006ms returns 0x01
T3908 000:048.701 JLINK_GetHardwareVersion()
T3908 000:048.707 - 0.009ms returns 0x17AE8
T3908 000:048.716 JLINK_GetDLLVersion()  returns 67005
T3908 000:048.732 JLINK_GetFirmwareString(...)
T3908 000:048.739 - 0.010ms
T3908 000:062.510 JLINK_GetDLLVersion()  returns 67005
T3908 000:062.530 JLINK_GetCompileDateTime()
T3908 000:062.536 - 0.010ms
T3908 000:066.258 JLINK_GetFirmwareString(...)
T3908 000:066.274 - 0.019ms
T3908 000:069.999 JLINK_GetHardwareVersion()
T3908 000:070.016 - 0.019ms returns 0x17AE8
T3908 000:084.056 JLINK_TIF_Select(JLINKARM_TIF_JTAG)
T3908 000:085.084 - 1.038ms returns 0x00
T3908 000:085.114 JLINK_SetSpeed(10000)
T3908 000:085.247 - 0.141ms
T3908 000:085.264 JLINK_GetIdData(pIdData)
T3908 000:090.100   TotalIRLen = 9, IRPrint = 0x0011
T3908 000:094.375   JTAG chain detection found 2 devices:
T3908 000:098.149    #0 Id: 0x3BA00477, IRLen: 04, CoreSight JTAG-DP
T3908 000:101.640    #1 Id: 0x06414041, IRLen: 05, STM32 Boundary Scan
T3908 000:110.424   TotalIRLen = 9, IRPrint = 0x0011
T3908 000:114.581   JTAG chain detection found 2 devices:
T3908 000:118.380    #0 Id: 0x3BA00477, IRLen: 04, CoreSight JTAG-DP
T3908 000:123.192    #1 Id: 0x06414041, IRLen: 05, STM32 Boundary Scan
T3908 000:128.474   Cannot determine DP version. Assuming DPv0
T3908 000:132.399   Scanning AP map to find all available APs
T3908 000:136.649   AP[1]: Stopped AP scan as end of AP map has been reached
T3908 000:140.799   AP[0]: AHB-AP (IDR: 0x14770011)
T3908 000:144.565   Iterating through AP map to find AHB-AP to use
T3908 000:149.522   AP[0]: Core found
T3908 000:153.085   AP[0]: AHB-AP ROM base: 0xE00FF000
T3908 000:157.177   CPUID register: 0x411FC231. Implementer code: 0x41 (ARM)
T3908 000:160.584   Found Cortex-M3 r1p1, Little endian.
T3908 000:161.118    -- Max. mem block: 0x00010E40
T3908 000:161.143   CPU_ReadMem(4 bytes @ 0xE000EDF0)
T3908 000:162.300   CPU_WriteMem(4 bytes @ 0xE000EDF0)
T3908 000:162.608   CPU_ReadMem(4 bytes @ 0xE0002000)
T3908 000:166.757   FPUnit: 6 code (BP) slots and 2 literal slots
T3908 000:166.782   CPU_ReadMem(4 bytes @ 0xE000EDFC)
T3908 000:167.131   CPU_WriteMem(4 bytes @ 0xE000EDFC)
T3908 000:167.434   CPU_ReadMem(4 bytes @ 0xE0001000)
T3908 000:167.760   CPU_WriteMem(4 bytes @ 0xE0001000)
T3908 000:168.051   CPU_ReadMem(4 bytes @ 0xE000ED88)
T3908 000:168.339   CPU_WriteMem(4 bytes @ 0xE000ED88)
T3908 000:168.563   CPU_ReadMem(4 bytes @ 0xE000ED88)
T3908 000:168.866   CPU_WriteMem(4 bytes @ 0xE000ED88)
T3908 000:172.911   CoreSight components:
T3908 000:176.339   ROMTbl[0] @ E00FF000
T3908 000:176.405   CPU_ReadMem(64 bytes @ 0xE00FF000)
T3908 000:176.926   CPU_ReadMem(32 bytes @ 0xE000EFE0)
T3908 000:181.186   ROMTbl[0][0]: E000E000, CID: B105E00D, PID: 001BB000 SCS
T3908 000:181.211   CPU_ReadMem(32 bytes @ 0xE0001FE0)
T3908 000:185.401   ROMTbl[0][1]: E0001000, CID: B105E00D, PID: 001BB002 DWT
T3908 000:185.426   CPU_ReadMem(32 bytes @ 0xE0002FE0)
T3908 000:189.394   ROMTbl[0][2]: E0002000, CID: B105E00D, PID: 000BB003 FPB
T3908 000:189.418   CPU_ReadMem(32 bytes @ 0xE0000FE0)
T3908 000:193.078   ROMTbl[0][3]: E0000000, CID: B105E00D, PID: 001BB001 ITM
T3908 000:193.099   CPU_ReadMem(32 bytes @ 0xE0040FE0)
T3908 000:196.738   ROMTbl[0][4]: E0040000, CID: B105900D, PID: 001BB923 TPIU-Lite
T3908 000:196.761   CPU_ReadMem(32 bytes @ 0xE0041FE0)
T3908 000:200.652   ROMTbl[0][5]: E0041000, CID: B105900D, PID: 101BB924 ETM-M3
T3908 000:200.704   pIdData->ScanLen=9
T3908 000:200.715   
T3908 000:200.721   pIdData->NumDevices=2
T3908 000:200.730   
T3908 000:200.737   pIdData->aId[0]=0x3BA00477
T3908 000:200.746   
T3908 000:200.752   pIdData->aIrRead[0]=0
T3908 000:200.761   
T3908 000:200.767   pIdData->aScanLen[0]=0
T3908 000:200.776   
T3908 000:200.782   pIdData->aScanRead[0]=0
T3908 000:200.791   
T3908 000:200.797 - 115.535ms
T3908 000:200.814 JLINK_JTAG_GetDeviceID(DeviceIndex = 0)
T3908 000:200.821 - 0.010ms returns 0x3BA00477
T3908 000:200.830 JLINK_JTAG_GetDeviceInfo(DeviceIndex = 0)
T3908 000:200.837 - 0.009ms returns 0x00
T3908 000:200.845 JLINK_JTAG_GetDeviceID(DeviceIndex = 1)
T3908 000:200.851 - 0.009ms returns 0x6414041
T3908 000:200.859 JLINK_JTAG_GetDeviceInfo(DeviceIndex = 1)
T3908 000:200.866 - 0.009ms returns 0x00
T3908 000:200.876 JLINK_GetDLLVersion()  returns 67005
T3908 000:200.885 JLINK_CORE_GetFound()
T3908 000:200.891 - 0.009ms returns 0x30000FF
T3908 000:200.900 JLINK_GetDebugInfo(0x100 = JLINKARM_ROM_TABLE_ADDR_INDEX)
T3908 000:200.909   Value=0xE00FF000
T3908 000:200.918 - 0.021ms returns 0x00
T3908 000:204.388 JLINK_GetDebugInfo(0x100 = JLINKARM_ROM_TABLE_ADDR_INDEX)
T3908 000:204.402   Value=0xE00FF000
T3908 000:204.412 - 0.027ms returns 0x00
T3908 000:204.420 JLINK_GetDebugInfo(0x101 = JLINKARM_DEBUG_INFO_ETM_ADDR_INDEX)
T3908 000:204.427   Value=0xE0041000
T3908 000:204.436 - 0.018ms returns 0x00
T3908 000:204.445   JLINK_ReadMemEx(0xE0041FD0, 0x0020 Bytes, ..., Flags = 0x02000004)
T3908 000:204.470   CPU_ReadMem(32 bytes @ 0xE0041FD0)
T3908 000:204.865   Data:  04 00 00 00 00 00 00 00 00 00 00 00 00 00 00 00 ...
T3908 000:204.878 - 0.437ms returns 0x20
T3908 000:204.889 JLINK_GetDebugInfo(0x102 = JLINKARM_DEBUG_INFO_MTB_ADDR_INDEX)
T3908 000:204.896   Value=0x00000000
T3908 000:204.905 - 0.019ms returns 0x00
T3908 000:204.913 JLINK_GetDebugInfo(0x103 = JLINKARM_DEBUG_INFO_TPIU_ADDR_INDEX)
T3908 000:204.919   Value=0xE0040000
T3908 000:204.928 - 0.018ms returns 0x00
T3908 000:204.936 JLINK_GetDebugInfo(0x104 = JLINKARM_DEBUG_INFO_ITM_ADDR_INDEX)
T3908 000:204.942   Value=0xE0000000
T3908 000:204.951 - 0.018ms returns 0x00
T3908 000:204.959 JLINK_GetDebugInfo(0x105 = JLINKARM_DEBUG_INFO_DWT_ADDR_INDEX)
T3908 000:204.965   Value=0xE0001000
T3908 000:204.974 - 0.018ms returns 0x00
T3908 000:204.982 JLINK_GetDebugInfo(0x106 = JLINKARM_DEBUG_INFO_FPB_ADDR_INDEX)
T3908 000:204.988   Value=0xE0002000
T3908 000:204.997 - 0.018ms returns 0x00
T3908 000:205.005 JLINK_GetDebugInfo(0x107 = JLINKARM_DEBUG_INFO_NVIC_ADDR_INDEX)
T3908 000:205.012   Value=0xE000E000
T3908 000:205.020 - 0.018ms returns 0x00
T3908 000:205.029 JLINK_GetDebugInfo(0x10C = JLINKARM_DEBUG_INFO_DBG_ADDR_INDEX)
T3908 000:205.035   Value=0xE000EDF0
T3908 000:205.044 - 0.018ms returns 0x00
T3908 000:205.052 JLINK_GetDebugInfo(0x01 = Unknown)
T3908 000:205.060   Value=0x00000000
T3908 000:205.069 - 0.020ms returns 0x00
T3908 000:205.079 JLINK_ReadMemU32(0xE000ED00, 0x0001 Items, ...)
T3908 000:205.089   CPU_ReadMem(4 bytes @ 0xE000ED00)
T3908 000:205.316   Data:  31 C2 1F 41
T3908 000:205.333    - CPUID
T3908 000:205.342 - 0.266ms returns 1
T3908 000:205.355 JLINK_GetDebugInfo(0x10F = JLINKARM_DEBUG_INFO_HAS_CORTEX_M_SECURITY_EXT_INDEX)
T3908 000:205.363   Value=0x00000000
T3908 000:205.372 - 0.020ms returns 0x00
T3908 000:205.383 JLINK_SetResetType(JLINKARM_CM3_RESET_TYPE_NORMAL)
T3908 000:205.390 - 0.009ms returns JLINKARM_CM3_RESET_TYPE_NORMAL
T3908 000:205.398 JLINK_Reset()
T3908 000:205.413   CPU is running
T3908 000:205.424   CPU_WriteMem(4 bytes @ 0xE000EDF0)
T3908 000:205.621   CPU is running
T3908 000:205.636   CPU_WriteMem(4 bytes @ 0xE000EDFC)
T3908 000:209.304   Reset: Halt core after reset via DEMCR.VC_CORERESET.
T3908 000:212.721   Reset: Reset device via AIRCR.SYSRESETREQ.
T3908 000:212.741   CPU is running
T3908 000:212.753   CPU_WriteMem(4 bytes @ 0xE000ED0C)
T3908 000:264.456   CPU_ReadMem(4 bytes @ 0xE000EDF0)
T3908 000:264.727   CPU_ReadMem(4 bytes @ 0xE000EDF0)
T3908 000:264.975   CPU is running
T3908 000:264.990   CPU_WriteMem(4 bytes @ 0xE000EDF0)
T3908 000:265.217   CPU is running
T3908 000:265.231   CPU_WriteMem(4 bytes @ 0xE000EDFC)
T3908 000:271.482   CPU_ReadMem(4 bytes @ 0xE000EDF0)
T3908 000:273.197   CPU_WriteMem(4 bytes @ 0xE000EDFC)
T3908 000:273.509   CPU_WriteMem(4 bytes @ 0xE0001028)
T3908 000:273.809   CPU_WriteMem(4 bytes @ 0xE0001038)
T3908 000:274.096   CPU_WriteMem(4 bytes @ 0xE0001048)
T3908 000:274.364   CPU_WriteMem(4 bytes @ 0xE0001058)
T3908 000:274.591   CPU_WriteMem(4 bytes @ 0xE0002000)
T3908 000:274.862   CPU_ReadMem(4 bytes @ 0xE000EDFC)
T3908 000:275.112   CPU_ReadMem(4 bytes @ 0xE0001000)
T3908 000:275.340 - 69.949ms
T3908 000:275.359 JLINK_Halt()
T3908 000:275.366 - 0.009ms returns 0x00
T3908 000:275.375 JLINK_ReadMemU32(0xE000EDF0, 0x0001 Items, ...)
T3908 000:275.387   CPU_ReadMem(4 bytes @ 0xE000EDF0)
T3908 000:275.607   Data:  03 00 03 00
T3908 000:275.620    - DHCSR
T3908 000:275.629 - 0.257ms returns 1
T3908 000:275.641 JLINK_WriteU32(0xE000EDF0, 0xA05F0003)
T3908 000:275.648    - DHCSR
T3908 000:275.666   CPU_WriteMem(4 bytes @ 0xE000EDF0)
T3908 000:275.869 - 0.235ms returns 0
T3908 000:275.886 JLINK_WriteU32(0xE000EDFC, 0x01000000)
T3908 000:275.893    - DEMCR
T3908 000:275.907   CPU_WriteMem(4 bytes @ 0xE000EDFC)
T3908 000:276.099 - 0.220ms returns 0
T3908 000:290.187 JLINK_GetHWStatus(...)
T3908 000:290.420 - 0.241ms returns 0x00
T3908 000:300.583 JLINK_GetNumBPUnits(Type = 0xFFFFFF00)
T3908 000:300.602 - 0.022ms returns 0x06
T3908 000:300.611 JLINK_GetNumBPUnits(Type = 0xF0)
T3908 000:300.618 - 0.009ms returns 0x2000
T3908 000:300.626 JLINK_GetNumWPUnits()
T3908 000:300.632 - 0.009ms returns 0x04
T3908 000:311.433 JLINK_GetSpeed()
T3908 000:311.450 - 0.020ms returns 0x2710
T3908 000:318.325 JLINK_ReadMemU32(0xE000E004, 0x0001 Items, ...)
T3908 000:318.354   CPU_ReadMem(4 bytes @ 0xE000E004)
T3908 000:318.705   Data:  01 00 00 00
T3908 000:318.721 - 0.399ms returns 1
T3908 000:318.732 JLINK_ReadMemU32(0xE000E004, 0x0001 Items, ...)
T3908 000:318.744   CPU_ReadMem(4 bytes @ 0xE000E004)
T3908 000:319.075   Data:  01 00 00 00
T3908 000:319.090 - 0.360ms returns 1
T3908 000:319.101 JLINK_WriteMemEx(0xE0001000, 0x001C Bytes, ..., Flags = 0x02000004)
T3908 000:319.109   Data:  01 00 00 00 00 00 00 00 00 00 00 00 00 00 00 00 ...
T3908 000:319.583   CPU_WriteMem(28 bytes @ 0xE0001000)
T3908 000:319.961 - 0.868ms returns 0x1C
T3908 000:319.980 JLINK_Halt()
T3908 000:319.987 - 0.010ms returns 0x00
T3908 000:319.995 JLINK_IsHalted()
T3908 000:320.002 - 0.010ms returns TRUE
T3908 000:323.266 JLINK_WriteMem(0x20000000, 0x0164 Bytes, ...)
T3908 000:323.278   Data:  00 BE 0A E0 0D 78 2D 06 68 40 08 24 40 00 00 D3 ...
T3908 000:323.748   CPU_WriteMem(356 bytes @ 0x20000000)
T3908 000:324.931 - 1.674ms returns 0x164
T3908 000:324.970 JLINK_WriteReg(R0, 0x08000000)
T3908 000:324.981 - 0.015ms returns 0x00
T3908 000:324.990 JLINK_WriteReg(R1, 0x00B71B00)
T3908 000:324.998 - 0.010ms returns 0x00
T3908 000:325.006 JLINK_WriteReg(R2, 0x00000001)
T3908 000:325.013 - 0.010ms returns 0x00
T3908 000:325.022 JLINK_WriteReg(R3, 0x00000000)
T3908 000:325.032 - 0.014ms returns 0x00
T3908 000:325.041 JLINK_WriteReg(R4, 0x00000000)
T3908 000:325.048 - 0.010ms returns 0x00
T3908 000:325.057 JLINK_WriteReg(R5, 0x00000000)
T3908 000:325.064 - 0.010ms returns 0x00
T3908 000:325.072 JLINK_WriteReg(R6, 0x00000000)
T3908 000:325.079 - 0.010ms returns 0x00
T3908 000:325.088 JLINK_WriteReg(R7, 0x00000000)
T3908 000:325.095 - 0.010ms returns 0x00
T3908 000:325.103 JLINK_WriteReg(R8, 0x00000000)
T3908 000:325.110 - 0.010ms returns 0x00
T3908 000:325.119 JLINK_WriteReg(R9, 0x20000160)
T3908 000:325.126 - 0.010ms returns 0x00
T3908 000:325.134 JLINK_WriteReg(R10, 0x00000000)
T3908 000:325.141 - 0.010ms returns 0x00
T3908 000:325.150 JLINK_WriteReg(R11, 0x00000000)
T3908 000:325.157 - 0.010ms returns 0x00
T3908 000:325.165 JLINK_WriteReg(R12, 0x00000000)
T3908 000:325.172 - 0.010ms returns 0x00
T3908 000:325.181 JLINK_WriteReg(R13 (SP), 0x20001000)
T3908 000:325.188 - 0.011ms returns 0x00
T3908 000:325.197 JLINK_WriteReg(R14, 0x20000001)
T3908 000:325.204 - 0.010ms returns 0x00
T3908 000:325.212 JLINK_WriteReg(R15 (PC), 0x20000038)
T3908 000:325.219 - 0.010ms returns 0x00
T3908 000:325.228 JLINK_WriteReg(XPSR, 0x01000000)
T3908 000:325.235 - 0.010ms returns 0x00
T3908 000:325.243 JLINK_WriteReg(MSP, 0x20001000)
T3908 000:325.250 - 0.010ms returns 0x00
T3908 000:325.259 JLINK_WriteReg(PSP, 0x20001000)
T3908 000:325.266 - 0.010ms returns 0x00
T3908 000:325.274 JLINK_WriteReg(CFBP, 0x00000000)
T3908 000:325.283 - 0.011ms returns 0x00
T3908 000:325.292   JLINK_SetBPEx(Addr = 0x20000000, Type = 0xFFFFFFF2)
T3908 000:325.306   CPU_ReadMem(2 bytes @ 0x20000000)
T3908 000:325.604 - 0.320ms returns 0x00000001
T3908 000:325.621 JLINK_Go()
T3908 000:325.631   CPU_WriteMem(2 bytes @ 0x20000000)
T3908 000:325.938   CPU_ReadMem(4 bytes @ 0xE0001000)
T3908 000:326.254   CPU_WriteMem(4 bytes @ 0xE0002008)
T3908 000:326.270   CPU_WriteMem(4 bytes @ 0xE000200C)
T3908 000:326.281   CPU_WriteMem(4 bytes @ 0xE0002010)
T3908 000:326.291   CPU_WriteMem(4 bytes @ 0xE0002014)
T3908 000:326.301   CPU_WriteMem(4 bytes @ 0xE0002018)
T3908 000:326.311   CPU_WriteMem(4 bytes @ 0xE000201C)
T3908 000:327.129   CPU_WriteMem(4 bytes @ 0xE0001004)
T3908 000:328.634 - 3.021ms
T3908 000:328.665 JLINK_IsHalted()
T3908 000:329.902   CPU_ReadMem(2 bytes @ 0x20000000)
T3908 000:330.169 - 1.512ms returns TRUE
T3908 000:330.189 JLINK_ReadReg(R15 (PC))
T3908 000:330.199 - 0.013ms returns 0x20000000
T3908 000:330.208 JLINK_ClrBPEx(BPHandle = 0x00000001)
T3908 000:330.216 - 0.011ms returns 0x00
T3908 000:330.224 JLINK_ReadReg(R0)
T3908 000:330.238 - 0.017ms returns 0x00000000
T3908 000:330.575 JLINK_WriteReg(R0, 0x08000000)
T3908 000:330.589 - 0.017ms returns 0x00
T3908 000:330.598 JLINK_WriteReg(R1, 0x00B71B00)
T3908 000:330.605 - 0.010ms returns 0x00
T3908 000:330.613 JLINK_WriteReg(R2, 0x00000001)
T3908 000:330.620 - 0.010ms returns 0x00
T3908 000:330.628 JLINK_WriteReg(R3, 0x00000000)
T3908 000:330.635 - 0.010ms returns 0x00
T3908 000:330.643 JLINK_WriteReg(R4, 0x00000000)
T3908 000:330.650 - 0.010ms returns 0x00
T3908 000:330.658 JLINK_WriteReg(R5, 0x00000000)
T3908 000:330.665 - 0.010ms returns 0x00
T3908 000:330.673 JLINK_WriteReg(R6, 0x00000000)
T3908 000:330.680 - 0.010ms returns 0x00
T3908 000:330.688 JLINK_WriteReg(R7, 0x00000000)
T3908 000:330.695 - 0.010ms returns 0x00
T3908 000:330.703 JLINK_WriteReg(R8, 0x00000000)
T3908 000:330.710 - 0.010ms returns 0x00
T3908 000:330.719 JLINK_WriteReg(R9, 0x20000160)
T3908 000:330.726 - 0.010ms returns 0x00
T3908 000:330.734 JLINK_WriteReg(R10, 0x00000000)
T3908 000:330.741 - 0.010ms returns 0x00
T3908 000:330.749 JLINK_WriteReg(R11, 0x00000000)
T3908 000:330.756 - 0.010ms returns 0x00
T3908 000:330.764 JLINK_WriteReg(R12, 0x00000000)
T3908 000:330.771 - 0.010ms returns 0x00
T3908 000:330.779 JLINK_WriteReg(R13 (SP), 0x20001000)
T3908 000:330.787 - 0.010ms returns 0x00
T3908 000:330.795 JLINK_WriteReg(R14, 0x20000001)
T3908 000:330.802 - 0.010ms returns 0x00
T3908 000:330.810 JLINK_WriteReg(R15 (PC), 0x2000007C)
T3908 000:330.865 - 0.058ms returns 0x00
T3908 000:330.874 JLINK_WriteReg(XPSR, 0x01000000)
T3908 000:330.881 - 0.010ms returns 0x00
T3908 000:330.889 JLINK_WriteReg(MSP, 0x20001000)
T3908 000:330.896 - 0.010ms returns 0x00
T3908 000:330.905 JLINK_WriteReg(PSP, 0x20001000)
T3908 000:330.912 - 0.010ms returns 0x00
T3908 000:330.920 JLINK_WriteReg(CFBP, 0x00000000)
T3908 000:330.927 - 0.010ms returns 0x00
T3908 000:330.936   JLINK_SetBPEx(Addr = 0x20000000, Type = 0xFFFFFFF2)
T3908 000:330.946 - 0.014ms returns 0x00000002
T3908 000:330.955 JLINK_Go()
T3908 000:330.968   CPU_ReadMem(4 bytes @ 0xE0001000)
T3908 000:332.459 - 1.513ms
T3908 000:332.476 JLINK_IsHalted()
T3908 000:332.697 - 0.230ms returns FALSE
T3908 000:345.237 JLINK_IsHalted()
T3908 000:345.550 - 0.321ms returns FALSE
T3908 000:347.234 JLINK_IsHalted()
T3908 000:347.564 - 0.338ms returns FALSE
T3908 000:349.227 JLINK_IsHalted()
T3908 000:349.530 - 0.311ms returns FALSE
T3908 000:351.222 JLINK_IsHalted()
T3908 000:351.522 - 0.308ms returns FALSE
T3908 000:353.220 JLINK_IsHalted()
T3908 000:353.520 - 0.308ms returns FALSE
T3908 000:355.269 JLINK_IsHalted()
T3908 000:356.588   CPU_ReadMem(2 bytes @ 0x20000000)
T3908 000:356.910 - 1.650ms returns TRUE
T3908 000:356.930 JLINK_ReadReg(R15 (PC))
T3908 000:356.939 - 0.013ms returns 0x20000000
T3908 000:356.949 JLINK_ClrBPEx(BPHandle = 0x00000002)
T3908 000:356.956 - 0.011ms returns 0x00
T3908 000:356.965 JLINK_ReadReg(R0)
T3908 000:356.972 - 0.010ms returns 0x00000000
T3908 000:409.223 JLINK_WriteReg(R0, 0x00000001)
T3908 000:409.245 - 0.026ms returns 0x00
T3908 000:409.254 JLINK_WriteReg(R1, 0x00B71B00)
T3908 000:409.260 - 0.010ms returns 0x00
T3908 000:409.268 JLINK_WriteReg(R2, 0x00000001)
T3908 000:409.275 - 0.009ms returns 0x00
T3908 000:409.283 JLINK_WriteReg(R3, 0x00000000)
T3908 000:409.289 - 0.009ms returns 0x00
T3908 000:409.297 JLINK_WriteReg(R4, 0x00000000)
T3908 000:409.304 - 0.009ms returns 0x00
T3908 000:409.312 JLINK_WriteReg(R5, 0x00000000)
T3908 000:409.318 - 0.009ms returns 0x00
T3908 000:409.326 JLINK_WriteReg(R6, 0x00000000)
T3908 000:409.332 - 0.009ms returns 0x00
T3908 000:409.340 JLINK_WriteReg(R7, 0x00000000)
T3908 000:409.347 - 0.009ms returns 0x00
T3908 000:409.355 JLINK_WriteReg(R8, 0x00000000)
T3908 000:409.361 - 0.009ms returns 0x00
T3908 000:409.369 JLINK_WriteReg(R9, 0x20000160)
T3908 000:409.375 - 0.009ms returns 0x00
T3908 000:409.383 JLINK_WriteReg(R10, 0x00000000)
T3908 000:409.390 - 0.009ms returns 0x00
T3908 000:409.398 JLINK_WriteReg(R11, 0x00000000)
T3908 000:409.404 - 0.009ms returns 0x00
T3908 000:409.412 JLINK_WriteReg(R12, 0x00000000)
T3908 000:409.419 - 0.009ms returns 0x00
T3908 000:409.427 JLINK_WriteReg(R13 (SP), 0x20001000)
T3908 000:409.434 - 0.010ms returns 0x00
T3908 000:409.442 JLINK_WriteReg(R14, 0x20000001)
T3908 000:409.448 - 0.009ms returns 0x00
T3908 000:409.456 JLINK_WriteReg(R15 (PC), 0x2000006A)
T3908 000:409.463 - 0.009ms returns 0x00
T3908 000:409.471 JLINK_WriteReg(XPSR, 0x01000000)
T3908 000:409.477 - 0.009ms returns 0x00
T3908 000:409.485 JLINK_WriteReg(MSP, 0x20001000)
T3908 000:409.492 - 0.009ms returns 0x00
T3908 000:409.499 JLINK_WriteReg(PSP, 0x20001000)
T3908 000:409.506 - 0.009ms returns 0x00
T3908 000:409.514 JLINK_WriteReg(CFBP, 0x00000000)
T3908 000:409.520 - 0.009ms returns 0x00
T3908 000:409.529   JLINK_SetBPEx(Addr = 0x20000000, Type = 0xFFFFFFF2)
T3908 000:409.539 - 0.014ms returns 0x00000003
T3908 000:409.548 JLINK_Go()
T3908 000:409.563   CPU_ReadMem(4 bytes @ 0xE0001000)
T3908 000:411.255 - 1.716ms
T3908 000:411.272 JLINK_IsHalted()
T3908 000:412.566   CPU_ReadMem(2 bytes @ 0x20000000)
T3908 000:412.877 - 1.614ms returns TRUE
T3908 000:412.894 JLINK_ReadReg(R15 (PC))
T3908 000:412.903 - 0.012ms returns 0x20000000
T3908 000:412.912 JLINK_ClrBPEx(BPHandle = 0x00000003)
T3908 000:412.919 - 0.010ms returns 0x00
T3908 000:412.928 JLINK_ReadReg(R0)
T3908 000:412.935 - 0.010ms returns 0x00000000
T3908 000:419.917 JLINK_WriteMem(0x20000000, 0x0164 Bytes, ...)
T3908 000:419.937   Data:  00 BE 0A E0 0D 78 2D 06 68 40 08 24 40 00 00 D3 ...
T3908 000:419.958   CPU_WriteMem(356 bytes @ 0x20000000)
T3908 000:421.115 - 1.207ms returns 0x164
T3908 000:421.153 JLINK_WriteReg(R0, 0x08000000)
T3908 000:421.163 - 0.014ms returns 0x00
T3908 000:421.172 JLINK_WriteReg(R1, 0x00B71B00)
T3908 000:421.179 - 0.010ms returns 0x00
T3908 000:421.188 JLINK_WriteReg(R2, 0x00000002)
T3908 000:421.194 - 0.010ms returns 0x00
T3908 000:421.203 JLINK_WriteReg(R3, 0x00000000)
T3908 000:421.210 - 0.010ms returns 0x00
T3908 000:421.218 JLINK_WriteReg(R4, 0x00000000)
T3908 000:421.225 - 0.010ms returns 0x00
T3908 000:421.233 JLINK_WriteReg(R5, 0x00000000)
T3908 000:421.240 - 0.010ms returns 0x00
T3908 000:421.248 JLINK_WriteReg(R6, 0x00000000)
T3908 000:421.255 - 0.010ms returns 0x00
T3908 000:421.263 JLINK_WriteReg(R7, 0x00000000)
T3908 000:421.269 - 0.010ms returns 0x00
T3908 000:421.278 JLINK_WriteReg(R8, 0x00000000)
T3908 000:421.284 - 0.010ms returns 0x00
T3908 000:421.293 JLINK_WriteReg(R9, 0x20000160)
T3908 000:421.300 - 0.010ms returns 0x00
T3908 000:421.308 JLINK_WriteReg(R10, 0x00000000)
T3908 000:421.315 - 0.010ms returns 0x00
T3908 000:421.323 JLINK_WriteReg(R11, 0x00000000)
T3908 000:421.330 - 0.010ms returns 0x00
T3908 000:421.338 JLINK_WriteReg(R12, 0x00000000)
T3908 000:421.345 - 0.010ms returns 0x00
T3908 000:421.353 JLINK_WriteReg(R13 (SP), 0x20001000)
T3908 000:421.360 - 0.010ms returns 0x00
T3908 000:421.369 JLINK_WriteReg(R14, 0x20000001)
T3908 000:421.375 - 0.010ms returns 0x00
T3908 000:421.384 JLINK_WriteReg(R15 (PC), 0x20000038)
T3908 000:421.391 - 0.010ms returns 0x00
T3908 000:421.399 JLINK_WriteReg(XPSR, 0x01000000)
T3908 000:421.406 - 0.009ms returns 0x00
T3908 000:421.414 JLINK_WriteReg(MSP, 0x20001000)
T3908 000:421.421 - 0.010ms returns 0x00
T3908 000:421.429 JLINK_WriteReg(PSP, 0x20001000)
T3908 000:421.435 - 0.009ms returns 0x00
T3908 000:421.444 JLINK_WriteReg(CFBP, 0x00000000)
T3908 000:421.450 - 0.010ms returns 0x00
T3908 000:421.460   JLINK_SetBPEx(Addr = 0x20000000, Type = 0xFFFFFFF2)
T3908 000:421.473   CPU_ReadMem(2 bytes @ 0x20000000)
T3908 000:421.786 - 0.335ms returns 0x00000004
T3908 000:421.802 JLINK_Go()
T3908 000:421.813   CPU_WriteMem(2 bytes @ 0x20000000)
T3908 000:422.107   CPU_ReadMem(4 bytes @ 0xE0001000)
T3908 000:423.728 - 1.933ms
T3908 000:423.743 JLINK_IsHalted()
T3908 000:424.934   CPU_ReadMem(2 bytes @ 0x20000000)
T3908 000:425.179 - 1.443ms returns TRUE
T3908 000:425.194 JLINK_ReadReg(R15 (PC))
T3908 000:425.202 - 0.012ms returns 0x20000000
T3908 000:425.211 JLINK_ClrBPEx(BPHandle = 0x00000004)
T3908 000:425.219 - 0.010ms returns 0x00
T3908 000:425.227 JLINK_ReadReg(R0)
T3908 000:425.234 - 0.010ms returns 0x00000000
T3908 000:425.494 JLINK_WriteMem(0x20000164, 0x029C Bytes, ...)
T3908 000:425.505   Data:  08 96 00 20 45 01 00 08 CB 2F 00 08 65 18 00 08 ...
T3908 000:425.520   CPU_WriteMem(668 bytes @ 0x20000164)
T3908 000:427.236 - 1.748ms returns 0x29C
T3908 000:427.251 JLINK_WriteMem(0x20000400, 0x0164 Bytes, ...)
T3908 000:427.258   Data:  C2 B2 0C 06 04 EB D0 10 40 1C 40 08 80 2A 02 D0 ...
T3908 000:427.272   CPU_WriteMem(356 bytes @ 0x20000400)
T3908 000:428.356 - 1.112ms returns 0x164
T3908 000:428.374 JLINK_WriteReg(R0, 0x08000000)
T3908 000:428.382 - 0.012ms returns 0x00
T3908 000:428.391 JLINK_WriteReg(R1, 0x00000400)
T3908 000:428.398 - 0.010ms returns 0x00
T3908 000:428.406 JLINK_WriteReg(R2, 0x20000164)
T3908 000:428.413 - 0.010ms returns 0x00
T3908 000:428.421 JLINK_WriteReg(R3, 0x00000000)
T3908 000:428.428 - 0.010ms returns 0x00
T3908 000:428.436 JLINK_WriteReg(R4, 0x00000000)
T3908 000:428.443 - 0.010ms returns 0x00
T3908 000:428.451 JLINK_WriteReg(R5, 0x00000000)
T3908 000:428.458 - 0.010ms returns 0x00
T3908 000:428.466 JLINK_WriteReg(R6, 0x00000000)
T3908 000:428.473 - 0.010ms returns 0x00
T3908 000:428.481 JLINK_WriteReg(R7, 0x00000000)
T3908 000:428.488 - 0.010ms returns 0x00
T3908 000:428.496 JLINK_WriteReg(R8, 0x00000000)
T3908 000:428.506 - 0.014ms returns 0x00
T3908 000:428.515 JLINK_WriteReg(R9, 0x20000160)
T3908 000:428.522 - 0.010ms returns 0x00
T3908 000:428.530 JLINK_WriteReg(R10, 0x00000000)
T3908 000:428.537 - 0.010ms returns 0x00
T3908 000:428.545 JLINK_WriteReg(R11, 0x00000000)
T3908 000:428.552 - 0.010ms returns 0x00
T3908 000:428.560 JLINK_WriteReg(R12, 0x00000000)
T3908 000:428.567 - 0.010ms returns 0x00
T3908 000:428.575 JLINK_WriteReg(R13 (SP), 0x20001000)
T3908 000:428.582 - 0.010ms returns 0x00
T3908 000:428.590 JLINK_WriteReg(R14, 0x20000001)
T3908 000:428.597 - 0.010ms returns 0x00
T3908 000:428.605 JLINK_WriteReg(R15 (PC), 0x200000F4)
T3908 000:428.612 - 0.010ms returns 0x00
T3908 000:428.621 JLINK_WriteReg(XPSR, 0x01000000)
T3908 000:428.627 - 0.010ms returns 0x00
T3908 000:428.635 JLINK_WriteReg(MSP, 0x20001000)
T3908 000:428.642 - 0.010ms returns 0x00
T3908 000:428.651 JLINK_WriteReg(PSP, 0x20001000)
T3908 000:428.657 - 0.010ms returns 0x00
T3908 000:428.679 JLINK_WriteReg(CFBP, 0x00000000)
T3908 000:428.686 - 0.009ms returns 0x00
T3908 000:428.695   JLINK_SetBPEx(Addr = 0x20000000, Type = 0xFFFFFFF2)
T3908 000:428.704 - 0.013ms returns 0x00000005
T3908 000:428.712 JLINK_Go()
T3908 000:428.723   CPU_ReadMem(4 bytes @ 0xE0001000)
T3908 000:430.460 - 1.759ms
T3908 000:430.480 JLINK_IsHalted()
T3908 000:430.755 - 0.281ms returns FALSE
T3908 000:433.978 JLINK_IsHalted()
T3908 000:434.286 - 0.316ms returns FALSE
T3908 000:436.023 JLINK_IsHalted()
T3908 000:436.340 - 0.324ms returns FALSE
T3908 000:438.011 JLINK_IsHalted()
T3908 000:438.297 - 0.292ms returns FALSE
T3908 000:440.005 JLINK_IsHalted()
T3908 000:440.283 - 0.285ms returns FALSE
T3908 000:441.981 JLINK_IsHalted()
T3908 000:442.249 - 0.277ms returns FALSE
T3908 000:444.021 JLINK_IsHalted()
T3908 000:444.312 - 0.298ms returns FALSE
T3908 000:445.990 JLINK_IsHalted()
T3908 000:446.294 - 0.311ms returns FALSE
T3908 000:448.004 JLINK_IsHalted()
T3908 000:448.317 - 0.320ms returns FALSE
T3908 000:449.981 JLINK_IsHalted()
T3908 000:450.262 - 0.288ms returns FALSE
T3908 000:451.988 JLINK_IsHalted()
T3908 000:452.308 - 0.328ms returns FALSE
T3908 000:454.993 JLINK_IsHalted()
T3908 000:455.287 - 0.302ms returns FALSE
T3908 000:456.994 JLINK_IsHalted()
T3908 000:457.292 - 0.305ms returns FALSE
T3908 000:458.936 JLINK_IsHalted()
T3908 000:459.249 - 0.322ms returns FALSE
T3908 000:460.928 JLINK_IsHalted()
T3908 000:462.250   CPU_ReadMem(2 bytes @ 0x20000000)
T3908 000:462.578 - 1.658ms returns TRUE
T3908 000:462.594 JLINK_ReadReg(R15 (PC))
T3908 000:462.604 - 0.013ms returns 0x20000000
T3908 000:462.613 JLINK_ClrBPEx(BPHandle = 0x00000005)
T3908 000:462.620 - 0.010ms returns 0x00
T3908 000:462.629 JLINK_ReadReg(R0)
T3908 000:462.636 - 0.010ms returns 0x00000000
T3908 000:463.135 JLINK_WriteMem(0x20000164, 0x029C Bytes, ...)
T3908 000:463.146   Data:  18 46 22 46 00 F0 18 FA 2D 1A 67 EB 01 08 4F 46 ...
T3908 000:463.162   CPU_WriteMem(668 bytes @ 0x20000164)
T3908 000:464.970 - 1.844ms returns 0x29C
T3908 000:464.987 JLINK_WriteMem(0x20000400, 0x0164 Bytes, ...)
T3908 000:464.994   Data:  51 46 E7 FB 02 01 C5 F3 13 04 4F EA 0B 33 43 EA ...
T3908 000:465.009   CPU_WriteMem(356 bytes @ 0x20000400)
T3908 000:466.171 - 1.193ms returns 0x164
T3908 000:466.191 JLINK_WriteReg(R0, 0x08000400)
T3908 000:466.201 - 0.013ms returns 0x00
T3908 000:466.209 JLINK_WriteReg(R1, 0x00000400)
T3908 000:466.217 - 0.010ms returns 0x00
T3908 000:466.225 JLINK_WriteReg(R2, 0x20000164)
T3908 000:466.232 - 0.010ms returns 0x00
T3908 000:466.240 JLINK_WriteReg(R3, 0x00000000)
T3908 000:466.247 - 0.010ms returns 0x00
T3908 000:466.255 JLINK_WriteReg(R4, 0x00000000)
T3908 000:466.262 - 0.010ms returns 0x00
T3908 000:466.270 JLINK_WriteReg(R5, 0x00000000)
T3908 000:466.277 - 0.010ms returns 0x00
T3908 000:466.285 JLINK_WriteReg(R6, 0x00000000)
T3908 000:466.292 - 0.010ms returns 0x00
T3908 000:466.300 JLINK_WriteReg(R7, 0x00000000)
T3908 000:466.307 - 0.010ms returns 0x00
T3908 000:466.316 JLINK_WriteReg(R8, 0x00000000)
T3908 000:466.325 - 0.013ms returns 0x00
T3908 000:466.334 JLINK_WriteReg(R9, 0x20000160)
T3908 000:466.341 - 0.010ms returns 0x00
T3908 000:466.350 JLINK_WriteReg(R10, 0x00000000)
T3908 000:466.356 - 0.010ms returns 0x00
T3908 000:466.365 JLINK_WriteReg(R11, 0x00000000)
T3908 000:466.372 - 0.010ms returns 0x00
T3908 000:466.380 JLINK_WriteReg(R12, 0x00000000)
T3908 000:466.387 - 0.010ms returns 0x00
T3908 000:466.395 JLINK_WriteReg(R13 (SP), 0x20001000)
T3908 000:466.402 - 0.010ms returns 0x00
T3908 000:466.411 JLINK_WriteReg(R14, 0x20000001)
T3908 000:466.417 - 0.010ms returns 0x00
T3908 000:466.426 JLINK_WriteReg(R15 (PC), 0x200000F4)
T3908 000:466.433 - 0.010ms returns 0x00
T3908 000:466.441 JLINK_WriteReg(XPSR, 0x01000000)
T3908 000:466.448 - 0.010ms returns 0x00
T3908 000:466.456 JLINK_WriteReg(MSP, 0x20001000)
T3908 000:466.463 - 0.010ms returns 0x00
T3908 000:466.471 JLINK_WriteReg(PSP, 0x20001000)
T3908 000:466.478 - 0.010ms returns 0x00
T3908 000:466.486 JLINK_WriteReg(CFBP, 0x00000000)
T3908 000:466.493 - 0.010ms returns 0x00
T3908 000:466.502   JLINK_SetBPEx(Addr = 0x20000000, Type = 0xFFFFFFF2)
T3908 000:466.512 - 0.014ms returns 0x00000006
T3908 000:466.521 JLINK_Go()
T3908 000:466.533   CPU_ReadMem(4 bytes @ 0xE0001000)
T3908 000:468.268 - 1.755ms
T3908 000:468.284 JLINK_IsHalted()
T3908 000:468.559 - 0.283ms returns FALSE
T3908 000:472.899 JLINK_IsHalted()
T3908 000:473.202 - 0.311ms returns FALSE
T3908 000:474.892 JLINK_IsHalted()
T3908 000:475.165 - 0.281ms returns FALSE
T3908 000:476.882 JLINK_IsHalted()
T3908 000:477.178 - 0.304ms returns FALSE
T3908 000:478.878 JLINK_IsHalted()
T3908 000:479.175 - 0.305ms returns FALSE
T3908 000:480.872 JLINK_IsHalted()
T3908 000:481.166 - 0.302ms returns FALSE
T3908 000:482.900 JLINK_IsHalted()
T3908 000:483.233 - 0.341ms returns FALSE
T3908 000:484.905 JLINK_IsHalted()
T3908 000:485.207 - 0.310ms returns FALSE
T3908 000:486.895 JLINK_IsHalted()
T3908 000:487.196 - 0.309ms returns FALSE
T3908 000:488.883 JLINK_IsHalted()
T3908 000:489.177 - 0.302ms returns FALSE
T3908 000:490.897 JLINK_IsHalted()
T3908 000:491.186 - 0.297ms returns FALSE
T3908 000:492.886 JLINK_IsHalted()
T3908 000:493.206 - 0.328ms returns FALSE
T3908 000:494.871 JLINK_IsHalted()
T3908 000:495.170 - 0.306ms returns FALSE
T3908 000:496.843 JLINK_IsHalted()
T3908 000:497.109 - 0.275ms returns FALSE
T3908 000:498.825 JLINK_IsHalted()
T3908 000:500.148   CPU_ReadMem(2 bytes @ 0x20000000)
T3908 000:500.477 - 1.660ms returns TRUE
T3908 000:500.494 JLINK_ReadReg(R15 (PC))
T3908 000:500.503 - 0.013ms returns 0x20000000
T3908 000:500.512 JLINK_ClrBPEx(BPHandle = 0x00000006)
T3908 000:500.519 - 0.010ms returns 0x00
T3908 000:500.528 JLINK_ReadReg(R0)
T3908 000:500.534 - 0.010ms returns 0x00000000
T3908 000:501.031 JLINK_WriteMem(0x20000164, 0x029C Bytes, ...)
T3908 000:501.042   Data:  1C 46 4F F0 00 43 52 42 63 EB 04 03 99 42 08 BF ...
T3908 000:501.058   CPU_WriteMem(668 bytes @ 0x20000164)
T3908 000:502.827 - 1.804ms returns 0x29C
T3908 000:502.843 JLINK_WriteMem(0x20000400, 0x0164 Bytes, ...)
T3908 000:502.850   Data:  70 47 00 BF 00 00 02 40 2D E9 F0 43 02 68 47 F6 ...
T3908 000:502.865   CPU_WriteMem(356 bytes @ 0x20000400)
T3908 000:504.047 - 1.212ms returns 0x164
T3908 000:504.067 JLINK_WriteReg(R0, 0x08000800)
T3908 000:504.077 - 0.013ms returns 0x00
T3908 000:504.085 JLINK_WriteReg(R1, 0x00000400)
T3908 000:504.093 - 0.010ms returns 0x00
T3908 000:504.101 JLINK_WriteReg(R2, 0x20000164)
T3908 000:504.108 - 0.010ms returns 0x00
T3908 000:504.116 JLINK_WriteReg(R3, 0x00000000)
T3908 000:504.123 - 0.010ms returns 0x00
T3908 000:504.131 JLINK_WriteReg(R4, 0x00000000)
T3908 000:504.138 - 0.010ms returns 0x00
T3908 000:504.146 JLINK_WriteReg(R5, 0x00000000)
T3908 000:504.153 - 0.010ms returns 0x00
T3908 000:504.161 JLINK_WriteReg(R6, 0x00000000)
T3908 000:504.168 - 0.010ms returns 0x00
T3908 000:504.176 JLINK_WriteReg(R7, 0x00000000)
T3908 000:504.183 - 0.010ms returns 0x00
T3908 000:504.191 JLINK_WriteReg(R8, 0x00000000)
T3908 000:504.241 - 0.052ms returns 0x00
T3908 000:504.250 JLINK_WriteReg(R9, 0x20000160)
T3908 000:504.256 - 0.010ms returns 0x00
T3908 000:504.265 JLINK_WriteReg(R10, 0x00000000)
T3908 000:504.271 - 0.010ms returns 0x00
T3908 000:504.279 JLINK_WriteReg(R11, 0x00000000)
T3908 000:504.286 - 0.010ms returns 0x00
T3908 000:504.294 JLINK_WriteReg(R12, 0x00000000)
T3908 000:504.301 - 0.009ms returns 0x00
T3908 000:504.309 JLINK_WriteReg(R13 (SP), 0x20001000)
T3908 000:504.317 - 0.010ms returns 0x00
T3908 000:504.325 JLINK_WriteReg(R14, 0x20000001)
T3908 000:504.331 - 0.010ms returns 0x00
T3908 000:504.340 JLINK_WriteReg(R15 (PC), 0x200000F4)
T3908 000:504.346 - 0.010ms returns 0x00
T3908 000:504.355 JLINK_WriteReg(XPSR, 0x01000000)
T3908 000:504.361 - 0.010ms returns 0x00
T3908 000:504.369 JLINK_WriteReg(MSP, 0x20001000)
T3908 000:504.376 - 0.010ms returns 0x00
T3908 000:504.384 JLINK_WriteReg(PSP, 0x20001000)
T3908 000:504.391 - 0.009ms returns 0x00
T3908 000:504.399 JLINK_WriteReg(CFBP, 0x00000000)
T3908 000:504.406 - 0.010ms returns 0x00
T3908 000:504.415   JLINK_SetBPEx(Addr = 0x20000000, Type = 0xFFFFFFF2)
T3908 000:504.426 - 0.014ms returns 0x00000007
T3908 000:504.434 JLINK_Go()
T3908 000:504.447   CPU_ReadMem(4 bytes @ 0xE0001000)
T3908 000:506.171 - 1.745ms
T3908 000:506.187 JLINK_IsHalted()
T3908 000:506.426 - 0.247ms returns FALSE
T3908 000:507.808 JLINK_IsHalted()
T3908 000:508.034 - 0.234ms returns FALSE
T3908 000:509.763 JLINK_IsHalted()
T3908 000:510.008 - 0.253ms returns FALSE
T3908 000:511.757 JLINK_IsHalted()
T3908 000:512.007 - 0.258ms returns FALSE
T3908 000:513.823 JLINK_IsHalted()
T3908 000:514.061 - 0.246ms returns FALSE
T3908 000:515.781 JLINK_IsHalted()
T3908 000:516.017 - 0.244ms returns FALSE
T3908 000:517.774 JLINK_IsHalted()
T3908 000:518.007 - 0.241ms returns FALSE
T3908 000:519.768 JLINK_IsHalted()
T3908 000:520.007 - 0.247ms returns FALSE
T3908 000:521.763 JLINK_IsHalted()
T3908 000:522.048 - 0.293ms returns FALSE
T3908 000:523.731 JLINK_IsHalted()
T3908 000:524.040 - 0.317ms returns FALSE
T3908 000:525.796 JLINK_IsHalted()
T3908 000:526.089 - 0.302ms returns FALSE
T3908 000:527.778 JLINK_IsHalted()
T3908 000:528.075 - 0.304ms returns FALSE
T3908 000:529.784 JLINK_IsHalted()
T3908 000:530.122 - 0.345ms returns FALSE
T3908 000:531.770 JLINK_IsHalted()
T3908 000:532.067 - 0.304ms returns FALSE
T3908 000:533.762 JLINK_IsHalted()
T3908 000:534.065 - 0.310ms returns FALSE
T3908 000:535.759 JLINK_IsHalted()
T3908 000:536.043 - 0.293ms returns FALSE
T3908 000:537.764 JLINK_IsHalted()
T3908 000:539.095   CPU_ReadMem(2 bytes @ 0x20000000)
T3908 000:539.428 - 1.672ms returns TRUE
T3908 000:539.447 JLINK_ReadReg(R15 (PC))
T3908 000:539.457 - 0.013ms returns 0x20000000
T3908 000:539.466 JLINK_ClrBPEx(BPHandle = 0x00000007)
T3908 000:539.473 - 0.010ms returns 0x00
T3908 000:539.482 JLINK_ReadReg(R0)
T3908 000:539.489 - 0.010ms returns 0x00000000
T3908 000:539.995 JLINK_WriteMem(0x20000164, 0x029C Bytes, ...)
T3908 000:540.006   Data:  9D F9 16 48 02 F0 9E F9 20 88 29 88 02 22 33 88 ...
T3908 000:540.021   CPU_WriteMem(668 bytes @ 0x20000164)
T3908 000:541.759 - 1.773ms returns 0x29C
T3908 000:541.776 JLINK_WriteMem(0x20000400, 0x0164 Bytes, ...)
T3908 000:541.784   Data:  F4 F1 80 B2 92 B2 19 44 89 B2 0B 46 01 F0 6C FC ...
T3908 000:541.800   CPU_WriteMem(356 bytes @ 0x20000400)
T3908 000:542.997 - 1.229ms returns 0x164
T3908 000:543.017 JLINK_WriteReg(R0, 0x08000C00)
T3908 000:543.027 - 0.013ms returns 0x00
T3908 000:543.036 JLINK_WriteReg(R1, 0x00000400)
T3908 000:543.043 - 0.010ms returns 0x00
T3908 000:543.051 JLINK_WriteReg(R2, 0x20000164)
T3908 000:543.058 - 0.010ms returns 0x00
T3908 000:543.067 JLINK_WriteReg(R3, 0x00000000)
T3908 000:543.074 - 0.010ms returns 0x00
T3908 000:543.082 JLINK_WriteReg(R4, 0x00000000)
T3908 000:543.089 - 0.010ms returns 0x00
T3908 000:543.097 JLINK_WriteReg(R5, 0x00000000)
T3908 000:543.104 - 0.010ms returns 0x00
T3908 000:543.112 JLINK_WriteReg(R6, 0x00000000)
T3908 000:543.121 - 0.013ms returns 0x00
T3908 000:543.131 JLINK_WriteReg(R7, 0x00000000)
T3908 000:543.138 - 0.010ms returns 0x00
T3908 000:543.146 JLINK_WriteReg(R8, 0x00000000)
T3908 000:543.153 - 0.010ms returns 0x00
T3908 000:543.162 JLINK_WriteReg(R9, 0x20000160)
T3908 000:543.168 - 0.010ms returns 0x00
T3908 000:543.177 JLINK_WriteReg(R10, 0x00000000)
T3908 000:543.183 - 0.010ms returns 0x00
T3908 000:543.192 JLINK_WriteReg(R11, 0x00000000)
T3908 000:543.199 - 0.010ms returns 0x00
T3908 000:543.207 JLINK_WriteReg(R12, 0x00000000)
T3908 000:543.214 - 0.010ms returns 0x00
T3908 000:543.222 JLINK_WriteReg(R13 (SP), 0x20001000)
T3908 000:543.230 - 0.010ms returns 0x00
T3908 000:543.238 JLINK_WriteReg(R14, 0x20000001)
T3908 000:543.245 - 0.009ms returns 0x00
T3908 000:543.253 JLINK_WriteReg(R15 (PC), 0x200000F4)
T3908 000:543.260 - 0.010ms returns 0x00
T3908 000:543.268 JLINK_WriteReg(XPSR, 0x01000000)
T3908 000:543.275 - 0.010ms returns 0x00
T3908 000:543.283 JLINK_WriteReg(MSP, 0x20001000)
T3908 000:543.290 - 0.010ms returns 0x00
T3908 000:543.299 JLINK_WriteReg(PSP, 0x20001000)
T3908 000:543.306 - 0.010ms returns 0x00
T3908 000:543.314 JLINK_WriteReg(CFBP, 0x00000000)
T3908 000:543.321 - 0.010ms returns 0x00
T3908 000:543.330   JLINK_SetBPEx(Addr = 0x20000000, Type = 0xFFFFFFF2)
T3908 000:543.340 - 0.014ms returns 0x00000008
T3908 000:543.349 JLINK_Go()
T3908 000:543.362   CPU_ReadMem(4 bytes @ 0xE0001000)
T3908 000:545.131 - 1.790ms
T3908 000:545.147 JLINK_IsHalted()
T3908 000:545.429 - 0.290ms returns FALSE
T3908 000:548.748 JLINK_IsHalted()
T3908 000:549.069 - 0.329ms returns FALSE
T3908 000:550.760 JLINK_IsHalted()
T3908 000:551.084 - 0.332ms returns FALSE
T3908 000:552.738 JLINK_IsHalted()
T3908 000:553.041 - 0.311ms returns FALSE
T3908 000:554.724 JLINK_IsHalted()
T3908 000:555.044 - 0.328ms returns FALSE
T3908 000:556.688 JLINK_IsHalted()
T3908 000:556.963 - 0.284ms returns FALSE
T3908 000:558.727 JLINK_IsHalted()
T3908 000:559.053 - 0.334ms returns FALSE
T3908 000:561.676 JLINK_IsHalted()
T3908 000:561.963 - 0.295ms returns FALSE
T3908 000:563.701 JLINK_IsHalted()
T3908 000:564.032 - 0.338ms returns FALSE
T3908 000:565.678 JLINK_IsHalted()
T3908 000:566.027 - 0.356ms returns FALSE
T3908 000:567.674 JLINK_IsHalted()
T3908 000:568.029 - 0.363ms returns FALSE
T3908 000:569.671 JLINK_IsHalted()
T3908 000:569.970 - 0.307ms returns FALSE
T3908 000:571.668 JLINK_IsHalted()
T3908 000:571.969 - 0.309ms returns FALSE
T3908 000:573.677 JLINK_IsHalted()
T3908 000:574.029 - 0.359ms returns FALSE
T3908 000:575.672 JLINK_IsHalted()
T3908 000:577.068   CPU_ReadMem(2 bytes @ 0x20000000)
T3908 000:577.403 - 1.739ms returns TRUE
T3908 000:577.420 JLINK_ReadReg(R15 (PC))
T3908 000:577.429 - 0.013ms returns 0x20000000
T3908 000:577.438 JLINK_ClrBPEx(BPHandle = 0x00000008)
T3908 000:577.445 - 0.010ms returns 0x00
T3908 000:577.454 JLINK_ReadReg(R0)
T3908 000:577.461 - 0.010ms returns 0x00000000
T3908 000:577.951 JLINK_WriteMem(0x20000164, 0x029C Bytes, ...)
T3908 000:577.962   Data:  04 E0 5B 28 A8 BF 5B 2A C9 DB 0A 23 00 93 80 B2 ...
T3908 000:577.979   CPU_WriteMem(668 bytes @ 0x20000164)
T3908 000:579.800 - 1.859ms returns 0x29C
T3908 000:579.819 JLINK_WriteMem(0x20000400, 0x0164 Bytes, ...)
T3908 000:579.827   Data:  0A 68 22 EA 00 00 08 60 10 BD 08 43 01 68 11 43 ...
T3908 000:579.843   CPU_WriteMem(356 bytes @ 0x20000400)
T3908 000:581.014 - 1.203ms returns 0x164
T3908 000:581.035 JLINK_WriteReg(R0, 0x08001000)
T3908 000:581.045 - 0.013ms returns 0x00
T3908 000:581.053 JLINK_WriteReg(R1, 0x00000400)
T3908 000:581.061 - 0.010ms returns 0x00
T3908 000:581.069 JLINK_WriteReg(R2, 0x20000164)
T3908 000:581.076 - 0.010ms returns 0x00
T3908 000:581.084 JLINK_WriteReg(R3, 0x00000000)
T3908 000:581.091 - 0.010ms returns 0x00
T3908 000:581.099 JLINK_WriteReg(R4, 0x00000000)
T3908 000:581.106 - 0.009ms returns 0x00
T3908 000:581.114 JLINK_WriteReg(R5, 0x00000000)
T3908 000:581.121 - 0.010ms returns 0x00
T3908 000:581.129 JLINK_WriteReg(R6, 0x00000000)
T3908 000:581.139 - 0.014ms returns 0x00
T3908 000:581.149 JLINK_WriteReg(R7, 0x00000000)
T3908 000:581.155 - 0.010ms returns 0x00
T3908 000:581.164 JLINK_WriteReg(R8, 0x00000000)
T3908 000:581.171 - 0.010ms returns 0x00
T3908 000:581.179 JLINK_WriteReg(R9, 0x20000160)
T3908 000:581.185 - 0.010ms returns 0x00
T3908 000:581.194 JLINK_WriteReg(R10, 0x00000000)
T3908 000:581.200 - 0.010ms returns 0x00
T3908 000:581.209 JLINK_WriteReg(R11, 0x00000000)
T3908 000:581.215 - 0.010ms returns 0x00
T3908 000:581.224 JLINK_WriteReg(R12, 0x00000000)
T3908 000:581.230 - 0.010ms returns 0x00
T3908 000:581.238 JLINK_WriteReg(R13 (SP), 0x20001000)
T3908 000:581.246 - 0.011ms returns 0x00
T3908 000:581.254 JLINK_WriteReg(R14, 0x20000001)
T3908 000:581.261 - 0.009ms returns 0x00
T3908 000:581.269 JLINK_WriteReg(R15 (PC), 0x200000F4)
T3908 000:581.276 - 0.010ms returns 0x00
T3908 000:581.284 JLINK_WriteReg(XPSR, 0x01000000)
T3908 000:581.291 - 0.010ms returns 0x00
T3908 000:581.299 JLINK_WriteReg(MSP, 0x20001000)
T3908 000:581.306 - 0.010ms returns 0x00
T3908 000:581.314 JLINK_WriteReg(PSP, 0x20001000)
T3908 000:581.321 - 0.010ms returns 0x00
T3908 000:581.329 JLINK_WriteReg(CFBP, 0x00000000)
T3908 000:581.336 - 0.010ms returns 0x00
T3908 000:581.345   JLINK_SetBPEx(Addr = 0x20000000, Type = 0xFFFFFFF2)
T3908 000:581.355 - 0.014ms returns 0x00000009
T3908 000:581.364 JLINK_Go()
T3908 000:581.377   CPU_ReadMem(4 bytes @ 0xE0001000)
T3908 000:583.098 - 1.743ms
T3908 000:583.115 JLINK_IsHalted()
T3908 000:583.394 - 0.287ms returns FALSE
T3908 000:584.646 JLINK_IsHalted()
T3908 000:584.929 - 0.290ms returns FALSE
T3908 000:586.637 JLINK_IsHalted()
T3908 000:586.924 - 0.295ms returns FALSE
T3908 000:588.657 JLINK_IsHalted()
T3908 000:588.948 - 0.300ms returns FALSE
T3908 000:590.612 JLINK_IsHalted()
T3908 000:590.922 - 0.317ms returns FALSE
T3908 000:592.625 JLINK_IsHalted()
T3908 000:592.916 - 0.299ms returns FALSE
T3908 000:594.624 JLINK_IsHalted()
T3908 000:594.914 - 0.298ms returns FALSE
T3908 000:596.566 JLINK_IsHalted()
T3908 000:596.948 - 0.391ms returns FALSE
T3908 000:598.607 JLINK_IsHalted()
T3908 000:598.913 - 0.314ms returns FALSE
T3908 000:600.603 JLINK_IsHalted()
T3908 000:600.912 - 0.317ms returns FALSE
T3908 000:602.602 JLINK_IsHalted()
T3908 000:602.913 - 0.319ms returns FALSE
T3908 000:604.562 JLINK_IsHalted()
T3908 000:604.913 - 0.358ms returns FALSE
T3908 000:606.580 JLINK_IsHalted()
T3908 000:606.921 - 0.348ms returns FALSE
T3908 000:608.601 JLINK_IsHalted()
T3908 000:608.911 - 0.318ms returns FALSE
T3908 000:610.608 JLINK_IsHalted()
T3908 000:610.910 - 0.310ms returns FALSE
T3908 000:612.571 JLINK_IsHalted()
T3908 000:612.898 - 0.335ms returns FALSE
T3908 000:614.566 JLINK_IsHalted()
T3908 000:615.989   CPU_ReadMem(2 bytes @ 0x20000000)
T3908 000:616.286 - 1.727ms returns TRUE
T3908 000:616.302 JLINK_ReadReg(R15 (PC))
T3908 000:616.312 - 0.013ms returns 0x20000000
T3908 000:616.321 JLINK_ClrBPEx(BPHandle = 0x00000009)
T3908 000:616.328 - 0.010ms returns 0x00
T3908 000:616.337 JLINK_ReadReg(R0)
T3908 000:616.344 - 0.010ms returns 0x00000000
T3908 000:616.827 JLINK_WriteMem(0x20000164, 0x029C Bytes, ...)
T3908 000:616.838   Data:  31 B1 25 A0 07 F0 B0 F8 29 A0 07 F0 45 FD 1E E0 ...
T3908 000:616.854   CPU_WriteMem(668 bytes @ 0x20000164)
T3908 000:618.569 - 1.750ms returns 0x29C
T3908 000:618.585 JLINK_WriteMem(0x20000400, 0x0164 Bytes, ...)
T3908 000:618.592   Data:  CF B5 CD B3 20 2A 2A 2A 2A 2A 2A 2A 2A 2A 2A 0D ...
T3908 000:618.607   CPU_WriteMem(356 bytes @ 0x20000400)
T3908 000:619.802 - 1.225ms returns 0x164
T3908 000:619.821 JLINK_WriteReg(R0, 0x08001400)
T3908 000:619.831 - 0.013ms returns 0x00
T3908 000:619.839 JLINK_WriteReg(R1, 0x00000400)
T3908 000:619.846 - 0.010ms returns 0x00
T3908 000:619.854 JLINK_WriteReg(R2, 0x20000164)
T3908 000:619.861 - 0.009ms returns 0x00
T3908 000:619.869 JLINK_WriteReg(R3, 0x00000000)
T3908 000:619.876 - 0.009ms returns 0x00
T3908 000:619.884 JLINK_WriteReg(R4, 0x00000000)
T3908 000:619.893 - 0.013ms returns 0x00
T3908 000:619.903 JLINK_WriteReg(R5, 0x00000000)
T3908 000:619.909 - 0.009ms returns 0x00
T3908 000:619.917 JLINK_WriteReg(R6, 0x00000000)
T3908 000:619.924 - 0.009ms returns 0x00
T3908 000:619.932 JLINK_WriteReg(R7, 0x00000000)
T3908 000:619.939 - 0.009ms returns 0x00
T3908 000:619.947 JLINK_WriteReg(R8, 0x00000000)
T3908 000:619.953 - 0.010ms returns 0x00
T3908 000:619.961 JLINK_WriteReg(R9, 0x20000160)
T3908 000:619.968 - 0.009ms returns 0x00
T3908 000:619.976 JLINK_WriteReg(R10, 0x00000000)
T3908 000:619.983 - 0.009ms returns 0x00
T3908 000:619.990 JLINK_WriteReg(R11, 0x00000000)
T3908 000:619.997 - 0.009ms returns 0x00
T3908 000:620.005 JLINK_WriteReg(R12, 0x00000000)
T3908 000:620.012 - 0.009ms returns 0x00
T3908 000:620.020 JLINK_WriteReg(R13 (SP), 0x20001000)
T3908 000:620.027 - 0.010ms returns 0x00
T3908 000:620.035 JLINK_WriteReg(R14, 0x20000001)
T3908 000:620.041 - 0.009ms returns 0x00
T3908 000:620.049 JLINK_WriteReg(R15 (PC), 0x200000F4)
T3908 000:620.056 - 0.009ms returns 0x00
T3908 000:620.064 JLINK_WriteReg(XPSR, 0x01000000)
T3908 000:620.071 - 0.009ms returns 0x00
T3908 000:620.078 JLINK_WriteReg(MSP, 0x20001000)
T3908 000:620.085 - 0.009ms returns 0x00
T3908 000:620.093 JLINK_WriteReg(PSP, 0x20001000)
T3908 000:620.100 - 0.009ms returns 0x00
T3908 000:620.108 JLINK_WriteReg(CFBP, 0x00000000)
T3908 000:620.114 - 0.009ms returns 0x00
T3908 000:620.123   JLINK_SetBPEx(Addr = 0x20000000, Type = 0xFFFFFFF2)
T3908 000:620.133 - 0.013ms returns 0x0000000A
T3908 000:620.141 JLINK_Go()
T3908 000:620.154   CPU_ReadMem(4 bytes @ 0xE0001000)
T3908 000:621.826 - 1.693ms
T3908 000:621.843 JLINK_IsHalted()
T3908 000:622.149 - 0.314ms returns FALSE
T3908 000:623.540 JLINK_IsHalted()
T3908 000:623.910 - 0.377ms returns FALSE
T3908 000:625.537 JLINK_IsHalted()
T3908 000:625.834 - 0.305ms returns FALSE
T3908 000:627.531 JLINK_IsHalted()
T3908 000:627.829 - 0.306ms returns FALSE
T3908 000:629.446 JLINK_IsHalted()
T3908 000:629.742 - 0.305ms returns FALSE
T3908 000:631.519 JLINK_IsHalted()
T3908 000:631.814 - 0.303ms returns FALSE
T3908 000:633.517 JLINK_IsHalted()
T3908 000:633.804 - 0.295ms returns FALSE
T3908 000:635.510 JLINK_IsHalted()
T3908 000:635.811 - 0.309ms returns FALSE
T3908 000:637.507 JLINK_IsHalted()
T3908 000:637.806 - 0.307ms returns FALSE
T3908 000:639.507 JLINK_IsHalted()
T3908 000:639.801 - 0.302ms returns FALSE
T3908 000:641.494 JLINK_IsHalted()
T3908 000:641.782 - 0.295ms returns FALSE
T3908 000:643.494 JLINK_IsHalted()
T3908 000:643.826 - 0.339ms returns FALSE
T3908 000:645.488 JLINK_IsHalted()
T3908 000:645.794 - 0.314ms returns FALSE
T3908 000:647.448 JLINK_IsHalted()
T3908 000:647.749 - 0.309ms returns FALSE
T3908 000:649.497 JLINK_IsHalted()
T3908 000:649.799 - 0.310ms returns FALSE
T3908 000:651.489 JLINK_IsHalted()
T3908 000:651.808 - 0.326ms returns FALSE
T3908 000:653.463 JLINK_IsHalted()
T3908 000:654.784   CPU_ReadMem(2 bytes @ 0x20000000)
T3908 000:655.092 - 1.637ms returns TRUE
T3908 000:655.108 JLINK_ReadReg(R15 (PC))
T3908 000:655.117 - 0.012ms returns 0x20000000
T3908 000:655.126 JLINK_ClrBPEx(BPHandle = 0x0000000A)
T3908 000:655.133 - 0.010ms returns 0x00
T3908 000:655.142 JLINK_ReadReg(R0)
T3908 000:655.148 - 0.009ms returns 0x00000000
T3908 000:655.629 JLINK_WriteMem(0x20000164, 0x029C Bytes, ...)
T3908 000:655.640   Data:  80 68 08 40 18 BF 01 20 70 47 C0 68 08 40 18 BF ...
T3908 000:655.656   CPU_WriteMem(668 bytes @ 0x20000164)
T3908 000:657.399 - 1.779ms returns 0x29C
T3908 000:657.416 JLINK_WriteMem(0x20000400, 0x0164 Bytes, ...)
T3908 000:657.424   Data:  41 1E 00 28 39 80 F5 D1 0B 20 68 E0 30 46 01 21 ...
T3908 000:657.438   CPU_WriteMem(356 bytes @ 0x20000400)
T3908 000:658.585 - 1.176ms returns 0x164
T3908 000:658.604 JLINK_WriteReg(R0, 0x08001800)
T3908 000:658.613 - 0.013ms returns 0x00
T3908 000:658.622 JLINK_WriteReg(R1, 0x00000400)
T3908 000:658.629 - 0.010ms returns 0x00
T3908 000:658.637 JLINK_WriteReg(R2, 0x20000164)
T3908 000:658.644 - 0.013ms returns 0x00
T3908 000:658.656 JLINK_WriteReg(R3, 0x00000000)
T3908 000:658.663 - 0.010ms returns 0x00
T3908 000:658.671 JLINK_WriteReg(R4, 0x00000000)
T3908 000:658.678 - 0.009ms returns 0x00
T3908 000:658.686 JLINK_WriteReg(R5, 0x00000000)
T3908 000:658.692 - 0.009ms returns 0x00
T3908 000:658.700 JLINK_WriteReg(R6, 0x00000000)
T3908 000:658.707 - 0.009ms returns 0x00
T3908 000:658.715 JLINK_WriteReg(R7, 0x00000000)
T3908 000:658.721 - 0.009ms returns 0x00
T3908 000:658.729 JLINK_WriteReg(R8, 0x00000000)
T3908 000:658.736 - 0.010ms returns 0x00
T3908 000:658.744 JLINK_WriteReg(R9, 0x20000160)
T3908 000:658.751 - 0.009ms returns 0x00
T3908 000:658.759 JLINK_WriteReg(R10, 0x00000000)
T3908 000:658.765 - 0.009ms returns 0x00
T3908 000:658.773 JLINK_WriteReg(R11, 0x00000000)
T3908 000:658.780 - 0.009ms returns 0x00
T3908 000:658.788 JLINK_WriteReg(R12, 0x00000000)
T3908 000:658.794 - 0.009ms returns 0x00
T3908 000:658.802 JLINK_WriteReg(R13 (SP), 0x20001000)
T3908 000:658.809 - 0.010ms returns 0x00
T3908 000:658.817 JLINK_WriteReg(R14, 0x20000001)
T3908 000:658.824 - 0.009ms returns 0x00
T3908 000:658.832 JLINK_WriteReg(R15 (PC), 0x200000F4)
T3908 000:658.839 - 0.010ms returns 0x00
T3908 000:658.847 JLINK_WriteReg(XPSR, 0x01000000)
T3908 000:658.854 - 0.009ms returns 0x00
T3908 000:658.861 JLINK_WriteReg(MSP, 0x20001000)
T3908 000:658.868 - 0.009ms returns 0x00
T3908 000:658.876 JLINK_WriteReg(PSP, 0x20001000)
T3908 000:658.883 - 0.009ms returns 0x00
T3908 000:658.891 JLINK_WriteReg(CFBP, 0x00000000)
T3908 000:658.897 - 0.009ms returns 0x00
T3908 000:658.906   JLINK_SetBPEx(Addr = 0x20000000, Type = 0xFFFFFFF2)
T3908 000:658.916 - 0.013ms returns 0x0000000B
T3908 000:658.924 JLINK_Go()
T3908 000:658.937   CPU_ReadMem(4 bytes @ 0xE0001000)
T3908 000:660.559 - 1.643ms
T3908 000:660.575 JLINK_IsHalted()
